!Keysight Technologies,N5225A,MY55451604,A.10.60.03
!Date: Wednesday, June 05, 2019 16:55:11
!Correction: S11(Full 4 Port(1,2,3,4)) 
!S12(Full 4 Port(1,2,3,4)) 
!S13(Full 4 Port(1,2,3,4)) 
!S14(Full 4 Port(1,2,3,4)) 
!S21(Full 4 Port(1,2,3,4)) 
!S22(Full 4 Port(1,2,3,4)) 
!S23(Full 4 Port(1,2,3,4)) 
!S24(Full 4 Port(1,2,3,4)) 
!S31(Full 4 Port(1,2,3,4)) 
!S32(Full 4 Port(1,2,3,4)) 
!S33(Full 4 Port(1,2,3,4)) 
!S34(Full 4 Port(1,2,3,4)) 
!S41(Full 4 Port(1,2,3,4)) 
!S42(Full 4 Port(1,2,3,4)) 
!S43(Full 4 Port(1,2,3,4)) 
!S44(Full 4 Port(1,2,3,4)) 
!S4P File: Measurements: <S11,S12,S13,S14>,
!<S21,S22,S23,S24>,
!<S31,S32,S33,S34>,
!<S41,S42,S43,S44>:
# Hz S  dB   R 50
10000000 -13.443578 57.721149 -0.63721406 -19.885887 -15.909393 60.236961 -17.409113 -124.27325
-0.63466752 -19.927624 -13.414956 57.843643 -17.550634 -124.239 -15.865828 60.167934
-15.827874 60.200497 -17.491795 -124.41545 -13.297953 42.958324 -1.1435963 -19.003969
-17.399206 -124.3216 -15.885528 60.168148 -1.136462 -19.021072 -13.170037 43.624477
20000000 -8.7167015 36.174656 -1.7013502 -36.393963 -11.051724 34.519714 -12.429293 -154.41731
-1.7002342 -36.414455 -8.7004089 36.66185 -12.520193 -154.08044 -11.058034 34.428665
-10.998837 34.521496 -12.492327 -154.24391 -8.9416246 29.230515 -2.1198845 -34.931587
-12.429298 -154.39406 -11.066923 34.467999 -2.1071379 -34.977806 -8.7426538 29.8146
30000000 -6.6355419 16.032831 -3.1015456 -48.921089 -8.8440046 11.29157 -9.970129 178.42627
-3.1109462 -48.941368 -6.6149006 16.915443 -9.99508 178.60909 -8.9151821 11.331954
-8.8428984 11.30833 -10.005236 178.7005 -6.7944632 12.400852 -3.420372 -47.317867
-9.9634161 178.43434 -8.9241924 11.397833 -3.423703 -47.324104 -6.6416373 13.05269
40000000 -5.628068 -4.9425864 -4.8941989 -56.133041 -7.6384282 -13.023065 -8.1798735 150.9588
-4.9100032 -56.120251 -5.5913882 -3.6724472 -8.1718168 151.15366 -7.7160645 -12.778476
-7.6323943 -13.032845 -8.1830387 151.25458 -5.6309791 -6.6420951 -5.1361108 -55.153305
-8.1766939 150.96521 -7.727653 -12.689818 -5.1390634 -55.159058 -5.4805274 -5.5703979
50000000 -6.028842 -33.595974 -6.3495512 -45.675617 -7.3811202 -47.801689 -6.6896181 114.95985
-6.3769078 -45.811302 -5.9721012 -31.735395 -6.6308436 115.19974 -7.4737711 -46.893841
-7.3753133 -47.882801 -6.6387382 114.95055 -5.5993533 -33.964798 -6.8750029 -46.001057
-6.6858802 115.04539 -7.4844861 -47.011955 -6.8802423 -46.12146 -5.4673381 -31.501604
60000000 -14.937951 -59.86721 -2.0035634 -45.171627 -13.355106 -108.52375 -8.8526268 59.381413
-2.0974085 -44.560307 -14.674164 -53.394028 -8.6217604 59.455063 -13.543543 -104.95069
-13.375252 -108.74225 -8.8639088 58.252491 -12.435586 -67.337463 -2.6708767 -41.683189
-8.784523 59.715797 -13.809873 -105.43826 -2.7147357 -41.493793 -11.890101 -57.665718
70000000 -11.375197 12.013808 -1.0989896 -72.139076 -22.258043 33.988377 -18.75182 38.752831
-1.0807112 -71.475342 -10.87824 9.2071238 -18.394867 35.535122 -22.590202 22.130915
-22.175867 33.782619 -19.17197 37.896492 -13.335718 3.8097417 -1.4485375 -68.000862
-18.663107 38.368603 -21.8006 20.074017 -1.4436092 -67.83329 -11.835532 -2.3296063
80000000 -7.8219337 -2.2358546 -1.6774337 -89.071518 -14.205111 4.3554015 -21.136711 88.188286
-1.6455743 -88.645325 -7.6279922 -4.1222019 -21.661741 85.982124 -14.494353 0.18785028
-14.193402 4.2231765 -21.349438 90.691658 -9.0260277 -4.0501347 -1.9028 -85.287781
-21.192196 87.65023 -14.323962 -1.0331303 -1.891073 -85.199883 -8.2496567 -9.0604019
90000000 -6.6218777 -15.150734 -2.1961596 -101.73833 -12.218292 -12.32748 -17.759129 92.02446
-2.1680129 -101.39442 -6.5014892 -16.881592 -18.050564 92.280571 -12.539666 -15.401225
-12.212089 -12.443269 -17.769657 94.064476 -7.5251241 -15.455485 -2.3728306 -98.268494
-17.804079 91.952621 -12.455297 -16.440281 -2.3603179 -98.224388 -6.8867259 -20.008163
100000000 -6.0273767 -26.519938 -2.611208 -112.93781 -11.315002 -25.732805 -15.820374 82.524719
-2.5949292 -112.63922 -5.9566231 -28.515997 -15.940659 83.069244 -11.668747 -28.594076
-11.309276 -25.856449 -15.770572 84.111671 -6.7290988 -26.23871 -2.7886667 -109.8652
-15.868361 82.557976 -11.638241 -29.458487 -2.775635 -109.83644 -6.1349802 -30.788605
110000000 -5.6756577 -38.403095 -3.122251 -123.3552 -10.712706 -40.757847 -13.893432 70.013626
-3.1254711 -123.11917 -5.6957126 -41.261429 -13.812003 70.010078 -11.132813 -44.37072
-10.701896 -40.855255 -13.756452 70.626823 -6.1416631 -38.739418 -3.4070818 -121.06799
-13.9506 70.100121 -11.149406 -44.921185 -3.3903167 -121.05659 -5.5565562 -43.345589
120000000 -7.3124194 -44.804783 -2.5997868 -126.28234 -15.23332 -47.212715 -14.141669 22.492453
-2.6772504 -125.02322 -7.484446 -43.272366 -14.35563 17.288595 -16.816143 -44.71674
-15.225676 -47.954605 -15.032207 20.337961 -9.1000433 -47.046181 -3.0723722 -118.91246
-14.137047 22.502684 -16.123962 -42.26366 -3.0396221 -118.93575 -8.2230387 -52.530369
130000000 -6.0300751 -50.547409 -2.6423571 -141.54428 -11.946057 -46.210251 -16.467161 33.128841
-2.6521707 -141.06572 -5.9967327 -52.514435 -17.043156 32.297359 -12.348433 -45.545952
-11.853864 -46.604496 -16.892746 35.291245 -7.0380216 -47.49926 -2.766588 -136.75598
-16.455696 33.695934 -12.314901 -46.815784 -2.7341628 -136.67543 -6.3232694 -53.9939
140000000 -5.9540677 -59.815567 -2.7766604 -152.24629 -11.61261 -56.863155 -15.980189 24.651171
-2.7792366 -151.68549 -5.8972077 -63.067181 -16.324108 24.689455 -11.875731 -56.420547
-11.564049 -56.932781 -16.226759 27.157743 -6.7564073 -56.696056 -2.9124997 -147.95457
-16.035011 24.623669 -11.898099 -57.700012 -2.8899868 -147.84097 -5.9697957 -63.643921
150000000 -6.0820823 -67.788673 -2.7612183 -162.50131 -11.439343 -64.860596 -16.135197 12.510773
-2.6992414 -161.47792 -6.0285153 -73.011765 -16.344965 13.069132 -11.837392 -65.355209
-11.636968 -64.59993 -16.256338 15.484394 -6.6805515 -64.469223 -2.9214706 -158.25653
-16.427582 10.580276 -11.844601 -66.927109 -2.9057531 -158.22754 -5.9454179 -72.880402
160000000 -6.2546535 -76.623894 -2.755981 -172.79353 -11.432591 -74.167259 -16.292599 0.39173016
-2.6710689 -171.62077 -6.2944818 -83.186127 -16.418283 1.0633538 -11.843738 -74.679886
-11.725204 -73.930328 -16.355366 3.6207547 -6.7401142 -72.826103 -2.917695 -168.56085
-16.700571 -1.8036677 -11.866232 -76.321037 -2.9152639 -168.53191 -6.0132523 -82.403122
170000000 -6.6691036 -85.542374 -2.660008 176.89366 -11.504409 -83.334908 -16.598646 -12.174767
-2.5113847 177.92427 -6.5837574 -93.141167 -16.66095 -10.858737 -11.912354 -84.048126
-11.918354 -83.633102 -16.626362 -8.1356878 -6.9086704 -81.011421 -2.8872607 -178.7166
-17.23978 -15.226949 -11.965432 -85.904648 -2.8864794 -178.73607 -6.1576767 -92.02697
180000000 -7.0719957 -94.361526 -2.5573285 166.29312 -11.619657 -92.942787 -17.046215 -24.191685
-2.4013405 167.25685 -6.9852109 -103.96292 -17.01795 -22.958582 -12.020663 -94.208153
-12.083593 -93.756386 -17.038651 -20.015371 -7.1224475 -89.348953 -2.8261011 170.93398
-17.757051 -27.65896 -12.106461 -96.041794 -2.821187 170.90431 -6.3802552 -101.97662
190000000 -7.5604949 -103.05123 -2.4262476 155.56665 -11.798668 -102.98184 -17.636919 -36.180305
-2.2709773 156.58015 -7.5079789 -115.59863 -17.556232 -35.061764 -12.195042 -105.08358
-12.337744 -104.25784 -17.651222 -31.646076 -7.4350891 -97.711418 -2.7381968 160.50449
-18.423122 -40.241936 -12.310091 -107.03586 -2.7313855 160.48528 -6.6729054 -112.44257
200000000 -8.177866 -111.69129 -2.2761321 144.59311 -12.044106 -113.55431 -18.473177 -48.128998
-2.1172349 145.62152 -8.1731987 -128.15918 -18.289021 -46.801601 -12.470712 -116.36998
-12.67507 -115.18105 -18.459105 -42.487736 -7.8343282 -106.16513 -2.6212034 149.9543
-19.403032 -52.370651 -12.612395 -118.90657 -2.6215594 149.89926 -7.0664287 -123.3209
210000000 -8.9082756 -120.13277 -2.1228848 133.33163 -12.365305 -124.66407 -19.507359 -58.758221
-1.9613035 134.35089 -9.0020895 -141.86122 -19.275951 -57.646744 -12.80584 -128.77585
-13.071334 -126.63197 -19.4601 -52.019184 -8.3246317 -114.68468 -2.5020866 139.1721
-20.707279 -62.959599 -13.029799 -131.73238 -2.4949307 139.09938 -7.5358992 -134.95499
220000000 -9.7847309 -128.45604 -1.9775048 121.80753 -12.753661 -136.19447 -20.871943 -67.590927
-1.8185854 122.79552 -9.9870443 -156.89705 -20.510626 -66.516098 -13.266243 -142.04649
-13.535055 -138.81287 -20.644606 -59.384724 -8.9017277 -123.19899 -2.3688443 128.1553
-22.326891 -71.02121 -13.555147 -145.40469 -2.36568 128.0495 -8.1226149 -147.32779
230000000 -10.822258 -136.43593 -1.8475342 110.04198 -13.18655 -148.07777 -22.451698 -72.569328
-1.6972399 111.0466 -11.091438 -173.66849 -21.936863 -72.262238 -13.80087 -156.52638
-14.074928 -151.69646 -21.92589 -63.334076 -9.5615892 -131.67371 -2.2475731 116.83791
-24.171104 -74.825493 -14.158592 -159.9574 -2.2428496 116.74036 -8.7920685 -160.71986
240000000 -12.029851 -143.58044 -1.7355865 98.054863 -13.612456 -160.27953 -24.038313 -71.564346
-1.5873319 99.145721 -12.239962 167.24857 -23.340252 -73.377434 -14.400311 -172.07716
-14.71121 -165.02489 -23.001474 -62.475216 -10.275413 -140.09645 -2.1348271 105.27387
-26.109335 -72.043823 -14.806088 -175.47038 -2.1351442 105.19463 -9.5359716 -175.16859
250000000 -13.278018 -149.56619 -1.6505699 85.825775 -14.005043 -172.83873 -24.802149 -63.872303
-1.5049442 87.033539 -13.261993 145.58801 -24.234146 -68.736946 -15.018357 171.5419
-15.299429 -178.25313 -23.250671 -57.187958 -11.028738 -148.47325 -2.0464196 93.48278
-26.998285 -59.478695 -15.434174 168.07355 -2.0490928 93.438126 -10.313095 169.28656
260000000 -14.559768 -154.32443 -1.6077745 73.410721 -14.314433 174.35098 -23.971863 -55.789867
-1.4516796 74.752937 -13.925329 121.83354 -23.892324 -61.77314 -15.550942 154.55902
-15.876609 168.28864 -22.333033 -52.888481 -11.779848 -156.95174 -1.9995023 81.499496
-25.714533 -47.434555 -15.989672 150.64069 -1.992609 81.474518 -11.015921 152.74573
270000000 -15.547894 -158.83229 -1.6152703 60.904655 -14.48227 161.37889 -22.239599 -53.61451
-1.437947 62.485405 -14.06788 97.638443 -22.458603 -58.814636 -15.99506 137.38608
-16.157154 155.35844 -20.727615 -53.921894 -12.43084 -165.62657 -1.9804324 69.418762
-23.529505 -45.429134 -16.435423 132.71683 -1.9747866 69.391342 -11.624372 135.2381
280000000 -16.308079 -163.87173 -1.6630661 48.427139 -14.461118 148.32024 -20.36097 -57.658264
-1.4540211 50.065823 -13.717112 75.220108 -20.698803 -61.695522 -16.269201 120.31613
-16.227245 142.44632 -19.109032 -59.81168 -12.947562 -175.0966 -1.9970082 57.262314
-21.30159 -49.836849 -16.700874 114.882 -1.9949784 57.23415 -12.012145 117.20221
290000000 -16.794943 -171.76508 -1.7432715 36.001644 -14.22473 134.9986 -18.642038 -65.86602
-1.5094786 37.645969 -13.050414 56.01062 -19.035381 -68.859474 -16.32152 103.57948
-15.966331 129.394 -17.66794 -68.525528 -13.286916 174.17104 -2.0533614 45.05777
-19.362288 -58.831051 -16.72357 97.645309 -2.0557959 45.028355 -12.096377 99.27063
300000000 -17.163893 176.98314 -1.8487877 23.611032 -13.792949 121.38503 -17.152107 -76.661842
-1.5952237 25.239059 -12.2397 39.758694 -17.59119 -78.557152 -16.13504 87.265915
-15.471858 115.97973 -16.389969 -78.925278 -13.425605 161.78085 -2.1558609 32.841652
-17.767361 -70.207108 -16.508286 81.006142 -2.1529815 32.835022 -11.864806 81.957329
310000000 -17.395317 161.7587 -1.9898469 11.251527 -13.220599 107.46818 -15.890032 -89.04557
-1.7105882 12.889712 -11.410434 25.828451 -16.342604 -89.792023 -15.771437 71.493546
-14.807772 102.32813 -15.267373 -90.635735 -13.351983 147.76418 -2.2971501 20.640821
-16.447947 -82.939377 -16.130505 64.753281 -2.2898867 20.666862 -11.391231 65.788742
320000000 -17.448669 143.09282 -2.1670904 -1.0309818 -12.569912 93.385445 -14.838307 -102.58176
-1.8525763 0.56696713 -10.633636 13.37258 -15.255407 -102.02248 -15.294119 56.088234
-14.061313 88.590172 -14.300485 -103.22546 -13.050474 132.50592 -2.4810262 8.5205336
-15.362776 -96.572426 -15.699694 48.600842 -2.4693012 8.5459433 -10.774087 50.776123
330000000 -17.165705 121.80051 -2.3883436 -13.205049 -11.867567 79.267761 -13.975331 -117.39278
-2.0302188 -11.723394 -9.9355278 1.623047 -14.278 -115.00491 -14.796025 40.201595
-13.257345 74.868416 -13.420562 -116.39779 -12.517281 116.68743 -2.7194984 -3.5493748
-14.491966 -111.177 -15.351751 31.757782 -2.7055109 -3.5297174 -10.14268 36.195919
340000000 -16.665314 99.470749 -2.68258 -24.708616 -11.102604 64.214645 -13.642442 -135.53831
-2.2907817 -23.901085 -9.5463915 -10.860608 -13.311369 -129.50269 -14.742928 21.011892
-12.401582 60.69257 -12.651998 -132.18501 -11.731627 100.35159 -3.1111798 -15.19684
-14.023146 -127.28988 -15.979781 15.113614 -3.0862527 -15.252878 -10.067737 20.716627
350000000 -15.647264 79.215553 -2.9245541 -35.560337 -10.968117 48.978413 -13.923629 -143.96854
-2.5429997 -34.830799 -9.6788454 -21.24823 -13.131744 -145.95763 -15.988168 14.484209
-11.864801 45.788864 -12.459846 -146.58298 -11.241703 83.536438 -3.2445304 -25.003126
-13.870429 -139.99651 -16.46629 5.8030868 -3.2565508 -24.937107 -9.9449415 18.615396
360000000 -15.578901 61.280842 -2.8930957 -46.736233 -10.710218 35.10268 -13.590441 -155.86934
-2.6046324 -46.462631 -9.4763889 -25.35277 -12.927442 -157.51486 -14.625854 7.6693506
-11.590568 30.944603 -12.396411 -158.49448 -10.639132 69.810822 -3.4192903 -36.387062
-13.766765 -151.16914 -15.371459 0.042793617 -3.4154203 -36.372555 -8.632246 8.9529772
370000000 -14.640189 56.708073 -2.9933949 -58.720551 -10.885939 23.358507 -13.579475 -164.19164
-2.8834796 -57.687805 -8.9753504 -35.03986 -12.496445 -170.59259 -14.132336 -11.224033
-11.639859 18.708555 -12.027881 -170.5477 -10.004469 57.890785 -3.5725377 -47.234833
-13.624118 -159.52448 -15.125022 -17.458038 -3.5701261 -47.175575 -8.1253691 -2.081238
380000000 -12.742593 41.818378 -3.1238389 -71.120964 -10.654933 12.817551 -12.570125 -175.15515
-2.8652949 -69.536926 -9.0500765 -45.8055 -12.329408 177.151 -14.485806 -26.262247
-11.511968 7.7909245 -11.722909 177.36404 -9.2493553 46.616615 -3.7571476 -58.841057
-12.511791 -170.44804 -15.41088 -33.821358 -3.7368815 -58.766872 -7.5444469 -12.197767
390000000 -11.952099 28.703798 -3.3211062 -83.823586 -10.696365 1.1313643 -12.026237 172.27522
-3.0171044 -82.312592 -9.5740194 -56.562672 -12.011757 166.01003 -14.931753 -42.494625
-11.582493 -3.8776782 -11.311097 165.45882 -8.6086082 36.070004 -3.9812324 -70.246414
-11.813016 176.15642 -16.247061 -51.972713 -3.9461191 -70.144814 -7.2580462 -22.710644
400000000 -11.35735 19.688076 -3.7669547 -95.743111 -11.005545 -9.2087727 -11.502401 159.05678
-3.3479633 -95.187088 -10.845345 -62.030022 -11.491592 153.95442 -16.203058 -59.327412
-12.002276 -14.067768 -10.937357 151.90891 -8.0412865 26.570555 -4.2539968 -81.590378
-11.183263 161.97742 -17.986916 -67.407326 -4.1947808 -81.61174 -7.2320719 -32.384289
410000000 -10.69164 10.46474 -3.7544394 -107.62502 -11.354847 -18.919855 -11.338102 148.71097
-3.6211262 -106.98254 -11.158688 -73.55777 -11.210391 142.00087 -16.606524 -79.577072
-12.341134 -22.825708 -10.701292 140.64749 -7.5130892 17.715948 -4.458334 -92.773369
-10.914367 148.99768 -18.549755 -94.828491 -4.4128976 -92.917786 -7.2372169 -42.869736
420000000 -10.498811 4.8877735 -4.1216125 -122.39391 -12.193077 -26.986471 -10.340635 138.70201
-3.9915538 -120.78878 -14.551947 -88.458733 -10.425756 130.71716 -18.065004 -121.08862
-13.257745 -30.606716 -10.021473 128.12317 -7.1077166 9.9687214 -4.7442384 -105.07872
-10.110377 136.38812 -20.664413 -147.82219 -4.7094994 -105.35017 -8.0434856 -54.378426
430000000 -9.7884178 2.5830345 -4.9986243 -136.52022 -13.151879 -29.498108 -8.980957 123.6889
-4.8257103 -134.27818 -23.680023 -68.220917 -9.3993349 115.58422 -18.451771 169.24338
-14.200174 -32.074745 -9.3572893 112.7539 -6.6642795 3.5507634 -5.3352637 -117.65794
-9.2610531 120.10651 -19.592491 138.26669 -5.3127141 -117.94573 -10.107414 -61.207607
440000000 -8.5763235 -2.0980363 -6.3200965 -147.32465 -13.246304 -27.167175 -8.0344067 102.8552
-6.0624461 -144.48933 -16.587494 4.4870329 -8.7022877 96.174095 -14.974229 99.976036
-14.294724 -30.065001 -8.9890614 95.135956 -6.0724225 -2.572504 -6.2848439 -127.99651
-8.8049955 101.09439 -15.577112 84.13475 -6.2657938 -128.37086 -12.207237 -48.592075
450000000 -7.7850175 -10.26261 -7.5846739 -152.16505 -12.430465 -28.687263 -8.0854502 80.781044
-7.1081653 -149.39812 -10.891799 -7.6809244 -8.7564716 75.347595 -12.043618 52.904709
-13.868759 -30.279957 -9.0903635 77.094681 -5.4321189 -9.5804729 -7.0938263 -134.16051
-8.8944244 82.789284 -12.81085 47.453506 -7.1111031 -134.65326 -10.314837 -34.150757
460000000 -6.9644494 -15.591304 -7.8712444 -153.15479 -11.535119 -34.207737 -8.5527163 61.688492
-7.389472 -152.19713 -8.6567869 -24.226177 -9.3822613 57.14093 -10.828962 20.209583
-12.809471 -32.086349 -9.5171156 61.007832 -4.9212818 -17.882759 -7.3820229 -139.13731
-8.9224482 65.010246 -11.480804 19.762663 -7.435504 -139.40245 -8.1422987 -37.971867
470000000 -6.2509513 -25.526175 -7.4613028 -157.38174 -11.116241 -43.174755 -9.2709751 44.172501
-7.0824165 -156.77611 -7.7362614 -39.601139 -10.028031 41.598331 -10.429622 -2.904557
-12.048116 -40.184914 -9.89326 45.709881 -4.7299366 -26.024979 -7.3228803 -145.39525
-9.4355421 46.888779 -10.90202 -1.5970634 -7.3623438 -145.40407 -6.9812622 -47.218029
480000000 -6.1081972 -35.137375 -6.7712641 -164.1832 -11.084831 -50.885376 -10.09282 27.982939
-6.5013299 -163.44205 -7.8866153 -53.296803 -10.67731 26.061802 -10.411386 -20.135796
-11.715401 -48.238285 -10.502957 30.107607 -4.7108369 -32.843937 -7.1585617 -152.17122
-10.186304 30.19582 -10.920426 -17.99757 -7.1729698 -152.10956 -6.6073918 -56.767365
490000000 -6.321877 -43.593376 -6.0825968 -174.136 -10.994709 -57.892635 -11.073051 13.501741
-5.8246708 -172.87601 -8.3612928 -63.65757 -11.583365 12.586372 -10.141324 -34.707977
-11.487407 -56.560215 -11.268237 17.17135 -4.63129 -38.976002 -6.7847881 -160.70763
-11.070966 15.358272 -10.572187 -31.310213 -6.7815986 -160.7084 -6.4293284 -64.445175
500000000 -6.9351091 -50.199032 -5.4670768 174.41711 -11.098617 -65.669075 -12.097303 -0.045076478
-5.2093906 176.01126 -9.4651031 -75.21627 -12.354994 0.34818801 -10.144189 -50.58313
-11.573427 -65.492264 -11.932669 4.6660633 -4.716301 -45.279907 -6.5235977 -170.21584
-12.033034 0.93151575 -10.495038 -46.987797 -6.5134525 -170.28641 -6.4060993 -73.324753
510000000 -7.7109175 -52.77459 -4.9569163 161.35332 -11.308271 -71.512711 -13.263453 -12.631834
-4.6925778 163.49879 -11.874772 -85.396553 -12.990943 -11.608337 -10.495345 -66.582581
-11.882796 -72.270752 -12.633308 -7.2970309 -4.9087615 -50.129631 -6.2864356 179.96825
-13.260287 -12.883471 -10.92915 -63.242901 -6.2788243 179.85548 -6.7026296 -82.782036
520000000 -8.5630007 -52.696098 -4.5302634 146.82664 -11.402717 -78.491409 -14.996636 -23.692493
-4.1666045 149.66425 -17.19862 -88.29631 -13.901147 -24.498922 -11.450148 -84.271294
-12.126683 -80.118797 -13.507061 -18.486916 -5.109828 -54.554356 -5.9616518 170.05655
-15.218012 -24.279684 -12.249198 -79.898163 -5.9471226 169.89655 -7.3949995 -93.719055
530000000 -9.0842981 -44.236885 -4.4428492 129.74034 -11.962322 -85.248489 -17.008938 -23.638624
-3.8819413 132.76813 -21.158611 -8.0554199 -15.241847 -33.407772 -13.819245 -100.72145
-13.097626 -86.702103 -14.359081 -25.989199 -5.4454341 -57.913994 -5.5594716 158.36316
-17.35187 -22.524948 -15.021268 -90.143906 -5.55088 158.1295 -9.106945 -105.70541
540000000 -7.6809392 -37.280205 -4.9285235 114.19242 -12.29706 -87.61306 -16.555805 -20.680948
-4.2630048 116.0724 -12.709985 6.7194781 -15.676559 -40.244209 -16.858681 -105.50713
-13.614384 -85.940361 -14.692795 -35.633148 -5.6222744 -59.094715 -5.4950914 145.76093
-16.727396 -18.743 -17.401762 -88.759796 -5.5028811 145.55688 -12.016928 -111.75815
